time	V(b0)	V(b1)	V(mosi)
0.000000000000000e+000	5.000000e+000	5.000000e+000	0.000000e+000
9.999999960041972e-012	5.000009e+000	5.000009e+000	0.000000e+000
1.999999992008394e-011	5.000018e+000	5.000019e+000	0.000000e+000
3.999999984016789e-011	5.000040e+000	5.000040e+000	0.000000e+000
7.999999968033578e-011	5.000085e+000	5.000086e+000	0.000000e+000
8.999999964037775e-011	5.000097e+000	5.000098e+000	0.000000e+000
1.099999995604617e-010	5.000123e+000	5.000124e+000	0.000000e+000
1.499999994006296e-010	5.000175e+000	5.000175e+000	0.000000e+000
1.928575369964735e-010	5.000229e+000	5.000230e+000	0.000000e+000
2.529334785834417e-010	5.000302e+000	5.000304e+000	0.000000e+000
2.617919197743929e-010	5.000311e+000	5.000314e+000	0.000000e+000
2.795088021562952e-010	5.000329e+000	5.000332e+000	0.000000e+000
2.839380227517708e-010	5.000334e+000	5.000336e+000	0.000000e+000
2.927964639427220e-010	5.000342e+000	5.000344e+000	0.000000e+000
3.105133463246243e-010	5.000358e+000	5.000360e+000	0.000000e+000
3.318790182177073e-010	5.000377e+000	5.000379e+000	0.000000e+000
3.633817786191524e-010	5.000406e+000	5.000409e+000	0.000000e+000
3.967907399360538e-010	5.000438e+000	5.000440e+000	0.000000e+000
4.037892669524682e-010	5.000445e+000	5.000447e+000	0.000000e+000
4.177863209852969e-010	5.000459e+000	5.000461e+000	0.000000e+000
4.282841115099185e-010	5.000470e+000	5.000471e+000	0.000000e+000
4.300337432640221e-010	5.000472e+000	5.000473e+000	0.000000e+000
4.335330067722292e-010	5.000475e+000	5.000476e+000	0.000000e+000
4.361574544033846e-010	5.000478e+000	5.000479e+000	0.000000e+000
4.396567179115918e-010	5.000481e+000	5.000482e+000	0.000000e+000
4.466552449280062e-010	5.000488e+000	5.000489e+000	0.000000e+000
4.606522989608349e-010	5.000503e+000	5.000503e+000	0.000000e+000
4.886464070264924e-010	5.000532e+000	5.000531e+000	0.000000e+000
4.956449340429068e-010	5.000539e+000	5.000538e+000	0.000000e+000
5.096419880757355e-010	5.000554e+000	5.000552e+000	0.000000e+000
5.376360961413930e-010	5.000583e+000	5.000581e+000	0.000000e+000
5.829562604171589e-010	5.000628e+000	5.000628e+000	0.000000e+000
6.285495329031373e-010	5.000666e+000	5.000677e+000	0.000000e+000
6.915015223265407e-010	5.000698e+000	5.000744e+000	0.000000e+000
7.574149545313346e-010	5.000700e+000	5.000814e+000	0.000000e+000
8.132181694821118e-010	5.000666e+000	5.000867e+000	0.000000e+000
8.754858925413286e-010	5.000584e+000	5.000911e+000	0.000000e+000
9.149963034524056e-010	5.000509e+000	5.000926e+000	0.000000e+000
9.209791781778460e-010	5.000496e+000	5.000928e+000	0.000000e+000
9.329449276287269e-010	5.000466e+000	5.000929e+000	0.000000e+000
9.568764265304887e-010	5.000403e+000	5.000931e+000	0.000000e+000
1.000000000000000e-009	5.000284e+000	5.000933e+000	0.000000e+000
1.004312357346951e-009	5.000270e+000	5.000932e+000	0.000000e+000
1.012937072040854e-009	5.000242e+000	5.000931e+000	0.000000e+000
1.030186501428658e-009	5.000184e+000	5.000927e+000	0.000000e+000
1.064685360204267e-009	5.000056e+000	5.000921e+000	0.000000e+000
1.122385942473299e-009	4.999822e+000	5.000912e+000	0.000000e+000
1.210917217079314e-009	4.999424e+000	5.000901e+000	0.000000e+000
1.334397647901257e-009	4.998825e+000	5.000889e+000	0.000000e+000
1.475555224188583e-009	4.998105e+000	5.000875e+000	0.000000e+000
1.641839412163724e-009	4.997233e+000	5.000859e+000	0.000000e+000
1.870377418960944e-009	4.996020e+000	5.000836e+000	0.000000e+000
2.234560465517291e-009	4.994081e+000	5.000799e+000	0.000000e+000
2.842314666694895e-009	4.990844e+000	5.000736e+000	0.000000e+000
3.836320138621893e-009	4.985557e+000	5.000632e+000	0.000000e+000
5.579100497702097e-009	4.976299e+000	5.000451e+000	0.000000e+000
9.064661215862505e-009	4.957798e+000	5.000092e+000	0.000000e+000
1.603578265218332e-008	4.920820e+000	4.999397e+000	0.000000e+000
2.997802552482495e-008	4.846954e+000	4.998101e+000	0.000000e+000
5.786251127010821e-008	4.699436e+000	4.995732e+000	0.000000e+000
7.028615644048896e-008	4.633806e+000	4.994779e+000	0.000000e+000
7.742810886423345e-008	4.596127e+000	4.994284e+000	0.000000e+000
8.449086446361911e-008	4.558894e+000	4.993825e+000	0.000000e+000
9.092709419376579e-008	4.524982e+000	4.993426e+000	0.000000e+000
9.253615162630246e-008	4.516508e+000	4.993330e+000	0.000000e+000
9.575426649137579e-008	4.499563e+000	4.993144e+000	0.000000e+000
9.816785264018079e-008	4.486857e+000	4.993007e+000	0.000000e+000
9.857011699831496e-008	4.484740e+000	4.992985e+000	0.000000e+000
9.937464571458330e-008	4.480505e+000	4.992940e+000	0.000000e+000
1.009837031471200e-007	4.472034e+000	4.992850e+000	0.000000e+000
1.021022628158579e-007	4.466144e+000	4.992788e+000	0.000000e+000
1.033336319630233e-007	4.459659e+000	4.992718e+000	0.000000e+000
1.057963702573542e-007	4.446692e+000	4.992579e+000	0.000000e+000
1.089508908045139e-007	4.430089e+000	4.992405e+000	0.000000e+000
1.152599318988334e-007	4.396903e+000	4.992078e+000	0.000000e+000
1.232312872691641e-007	4.355005e+000	4.991701e+000	0.000000e+000
1.329691024579263e-007	4.303866e+000	4.991291e+000	0.000000e+000
1.424500679042455e-007	4.254116e+000	4.990944e+000	0.000000e+000
1.557411926757845e-007	4.184433e+000	4.990541e+000	0.000000e+000
1.747705040854895e-007	4.084751e+000	4.990137e+000	0.000000e+000
2.128291269048995e-007	3.885495e+000	4.989717e+000	0.000000e+000
2.293775564437924e-007	3.798817e+000	4.989727e+000	0.000000e+000
2.415029671129806e-007	3.735182e+000	4.989898e+000	0.000000e+000
2.505596247246225e-007	3.687450e+000	4.990165e+000	0.000000e+000
2.578609611252711e-007	3.648631e+000	4.990563e+000	0.000000e+000
2.665075952641707e-007	3.602092e+000	4.991328e+000	0.000000e+000
2.743716631330776e-007	3.559303e+000	4.992261e+000	0.000000e+000
2.839363907598244e-007	3.506973e+000	4.993530e+000	0.000000e+000
2.929000718177399e-007	3.457877e+000	4.994704e+000	0.000000e+000
3.052448172190527e-007	3.390263e+000	4.996249e+000	0.000000e+000
3.151245959582487e-007	3.336161e+000	4.997431e+000	0.000000e+000
3.207454901192741e-007	3.305387e+000	4.998074e+000	0.000000e+000
3.257163560694939e-007	3.278179e+000	4.998621e+000	0.000000e+000
3.300577020114666e-007	3.254421e+000	4.999084e+000	0.000000e+000
3.348214660758719e-007	3.228360e+000	4.999578e+000	0.000000e+000
3.443489942046825e-007	3.176255e+000	5.000544e+000	0.000000e+000
3.461062630145432e-007	3.166647e+000	5.000718e+000	0.000000e+000
3.469848974194735e-007	3.161845e+000	5.000803e+000	0.000000e+000
3.473363511814457e-007	3.159924e+000	5.000838e+000	0.000000e+000
3.480392587053899e-007	3.156082e+000	5.000906e+000	0.000000e+000
3.482149855863760e-007	3.155122e+000	5.000923e+000	0.000000e+000
3.485664393483481e-007	3.153201e+000	5.000957e+000	0.000000e+000
3.492693468722924e-007	3.149360e+000	5.001025e+000	0.000000e+000
3.504998505882613e-007	3.142637e+000	5.001143e+000	0.000000e+000
3.518308767676179e-007	3.135365e+000	5.001271e+000	0.000000e+000
3.544929291263312e-007	3.120826e+000	5.001522e+000	0.000000e+000
3.587821036831509e-007	3.097412e+000	5.001917e+000	0.000000e+000
3.654562023321961e-007	3.061011e+000	5.002512e+000	0.000000e+000
3.739726254766513e-007	3.014635e+000	5.003232e+000	0.000000e+000
3.864623749534728e-007	2.946843e+000	5.004200e+000	0.000000e+000
4.083314414524097e-007	2.828870e+000	5.005660e+000	0.000000e+000
4.358960346721332e-007	2.681740e+000	5.007110e+000	0.000000e+000
4.661939917570143e-007	2.522712e+000	5.008194e+000	0.000000e+000
4.999678426087253e-007	2.349686e+000	5.008812e+000	0.000000e+000
5.376371210349935e-007	2.162743e+000	5.008893e+000	0.000000e+000
5.748314160908231e-007	1.984483e+000	5.008467e+000	0.000000e+000
6.122343336427458e-007	1.804425e+000	5.007649e+000	0.000000e+000
6.563297172357429e-007	1.566017e+000	5.006397e+000	0.000000e+000
6.910504128553984e-007	1.339197e+000	5.005304e+000	0.000000e+000
6.981187101195241e-007	1.282741e+000	5.005075e+000	0.000000e+000
6.998857844355555e-007	1.266922e+000	5.005018e+000	0.000000e+000
7.104882303317442e-007	1.163510e+000	5.004675e+000	0.000000e+000
7.181179669084446e-007	1.079872e+000	5.004433e+000	0.000000e+000
7.305943452318038e-007	9.286677e-001	5.004047e+000	0.000000e+000
7.428304135859097e-007	7.712566e-001	5.003683e+000	0.000000e+000
7.537251688802193e-007	6.333537e-001	5.003382e+000	0.000000e+000
7.679619759758615e-007	4.705079e-001	5.003026e+000	0.000000e+000
7.796452196694767e-007	3.596386e-001	5.002771e+000	0.000000e+000
7.945973102182260e-007	2.502682e-001	5.002499e+000	0.000000e+000
8.100409076594298e-007	1.668249e-001	5.002273e+000	0.000000e+000
8.244934276531848e-007	1.119289e-001	5.002115e+000	0.000000e+000
8.384924031099188e-007	7.533128e-002	5.002011e+000	0.000000e+000
8.523365597754293e-007	5.054842e-002	5.001951e+000	0.000000e+000
8.659482105572798e-007	3.403411e-002	5.001934e+000	0.000000e+000
8.804257504557638e-007	2.221196e-002	5.001956e+000	0.000000e+000
8.938012237176982e-007	1.488532e-002	5.002011e+000	0.000000e+000
9.073390560456913e-007	9.931998e-003	5.002100e+000	0.000000e+000
9.202736194901608e-007	6.738044e-003	5.002211e+000	0.000000e+000
9.335145654017164e-007	4.531653e-003	5.002351e+000	0.000000e+000
9.463984216262419e-007	3.076796e-003	5.002508e+000	0.000000e+000
9.594920641860611e-007	2.077097e-003	5.002687e+000	0.000000e+000
9.723350638223828e-007	1.412456e-003	5.002879e+000	0.000000e+000
9.853291015450012e-007	9.573569e-004	5.003086e+000	0.000000e+000
9.981729581893622e-007	6.524153e-004	5.003300e+000	0.000000e+000
1.011121448142182e-006	4.443052e-004	5.003524e+000	0.000000e+000
1.024006468419433e-006	3.047309e-004	5.003752e+000	0.000000e+000
1.037996091929165e-006	2.046295e-004	5.004001e+000	0.000000e+000
1.054315955926821e-006	1.301162e-004	5.004290e+000	0.000000e+000
1.072980269505013e-006	7.888808e-005	5.004611e+000	0.000000e+000
1.095193497567704e-006	4.506706e-005	5.004972e+000	0.000000e+000
1.121329195526084e-006	2.492769e-005	5.005356e+000	0.000000e+000
1.154327542163415e-006	1.307454e-005	5.005767e+000	0.000000e+000
1.186183027550123e-006	7.710617e-006	5.006082e+000	0.000000e+000
1.213585757603640e-006	5.277103e-006	5.006280e+000	0.000000e+000
1.236399323761638e-006	3.911965e-006	5.006392e+000	0.000000e+000
1.259662491123129e-006	2.821901e-006	5.006460e+000	0.000000e+000
1.283105742193641e-006	1.927871e-006	5.006486e+000	0.000000e+000
1.314125976492687e-006	1.002780e-006	5.006471e+000	0.000000e+000
1.351967322861910e-006	2.225641e-007	5.006402e+000	0.000000e+000
1.399550932686175e-006	-2.602560e-007	5.006281e+000	0.000000e+000
1.457370552392045e-006	-2.427588e-007	5.006151e+000	0.000000e+000
1.526441743461647e-006	3.205973e-007	5.006072e+000	0.000000e+000
1.568742738827585e-006	8.394400e-007	5.006089e+000	0.000000e+000
1.602812242521397e-006	1.288862e-006	5.006152e+000	0.000000e+000
1.634964572256366e-006	1.670197e-006	5.006247e+000	0.000000e+000
1.669473853180478e-006	1.998277e-006	5.006377e+000	0.000000e+000
1.704110407492403e-006	2.214428e-006	5.006526e+000	0.000000e+000
1.750591773151398e-006	2.314141e-006	5.006738e+000	0.000000e+000
1.812184843070154e-006	2.170583e-006	5.006998e+000	0.000000e+000
1.903524458501833e-006	1.641660e-006	5.007309e+000	0.000000e+000
1.967582153572244e-006	1.183767e-006	5.007457e+000	0.000000e+000
2.026897600249999e-006	8.071506e-007	5.007530e+000	0.000000e+000
2.099619188895702e-006	5.076345e-007	5.007572e+000	0.000000e+000
2.169630669430581e-006	4.023343e-007	5.007593e+000	0.000000e+000
2.345495717887703e-006	5.275618e-007	5.007672e+000	0.000000e+000
2.430967591487968e-006	5.641141e-007	5.007736e+000	0.000000e+000
2.533365587752001e-006	4.731446e-007	5.007801e+000	0.000000e+000
2.654103266142516e-006	2.388041e-007	5.007829e+000	0.000000e+000
2.762907830141910e-006	2.801170e-009	5.007797e+000	0.000000e+000
2.877095877582921e-006	-1.866320e-007	5.007707e+000	0.000000e+000
3.011564793878108e-006	-3.241902e-007	5.007555e+000	0.000000e+000
3.189971228735421e-006	-4.676709e-007	5.007306e+000	0.000000e+000
3.326449345820206e-006	-6.041096e-007	5.007076e+000	0.000000e+000
3.456941745771133e-006	-7.590394e-007	5.006799e+000	0.000000e+000
3.690625116693150e-006	-1.014175e-006	5.006196e+000	0.000000e+000
3.912079228744752e-006	-1.200790e-006	5.005515e+000	0.000000e+000
4.308210724519524e-006	-1.441978e-006	5.004069e+000	0.000000e+000
5.011412220811131e-006	-1.654587e-006	5.001199e+000	0.000000e+000
5.749336848923836e-006	-1.531137e-006	4.998203e+000	0.000000e+000
6.451147501329889e-006	-1.117873e-006	4.995716e+000	0.000000e+000
6.780197419081502e-006	-8.304439e-007	4.994819e+000	0.000000e+000
7.013538425699505e-006	-5.851715e-007	4.994366e+000	0.000000e+000
7.185868887347258e-006	-3.978920e-007	4.994132e+000	0.000000e+000
7.355054519239893e-006	-2.154771e-007	4.993989e+000	0.000000e+000
7.565338540901752e-006	1.816004e-008	4.993916e+000	0.000000e+000
7.756384785750436e-006	2.360452e-007	4.993965e+000	0.000000e+000
8.066784576972565e-006	5.790750e-007	4.994297e+000	0.000000e+000
8.565430151637818e-006	1.065346e-006	4.995360e+000	0.000000e+000
9.335972294838252e-006	1.624598e-006	4.997838e+000	0.000000e+000
9.965448754743023e-006	1.834267e-006	5.000342e+000	0.000000e+000
1.051203147176820e-005	1.786377e-006	5.002644e+000	0.000000e+000
1.101533306340347e-005	1.571186e-006	5.004619e+000	0.000000e+000
1.140610055333893e-005	1.289194e-006	5.005905e+000	0.000000e+000
1.182217977228866e-005	9.069283e-007	5.006948e+000	0.000000e+000
1.213828609185156e-005	5.845598e-007	5.007507e+000	0.000000e+000
1.229683668947982e-005	4.082531e-007	5.007683e+000	0.000000e+000
1.245097544306231e-005	2.297496e-007	5.007771e+000	0.000000e+000
1.263176924849776e-005	2.343338e-008	5.007783e+000	0.000000e+000
1.286447210309050e-005	-2.364759e-007	5.007651e+000	0.000000e+000
1.324148455264091e-005	-6.378126e-007	5.007101e+000	0.000000e+000
1.384070522203119e-005	-1.188079e-006	5.005608e+000	0.000000e+000
1.442207948697207e-005	-1.557168e-006	5.003596e+000	0.000000e+000
1.505528577273258e-005	-1.709637e-006	5.001011e+000	0.000000e+000
1.575774382479104e-005	-1.560291e-006	4.998176e+000	0.000000e+000
1.652200643977276e-005	-1.089039e-006	4.995514e+000	0.000000e+000
1.682933887400916e-005	-8.089362e-007	4.994704e+000	0.000000e+000
1.704942057341730e-005	-5.748865e-007	4.994303e+000	0.000000e+000
1.721276313438076e-005	-3.987610e-007	4.994096e+000	0.000000e+000
1.738755102899987e-005	-2.087214e-007	4.993964e+000	0.000000e+000
1.760814168005745e-005	3.943760e-008	4.993914e+000	0.000000e+000
1.782604118303662e-005	2.872153e-007	4.994008e+000	0.000000e+000
1.817947330930856e-005	6.691249e-007	4.994477e+000	0.000000e+000
1.874355165836463e-005	1.185908e-006	4.995862e+000	0.000000e+000
1.959779081871973e-005	1.709987e-006	4.998857e+000	0.000000e+000
2.021422644302016e-005	1.815640e-006	5.001390e+000	0.000000e+000
2.072830948820171e-005	1.688279e-006	5.003513e+000	0.000000e+000
2.121018370332850e-005	1.424240e-006	5.005287e+000	0.000000e+000
2.157725277637811e-005	1.125191e-006	5.006384e+000	0.000000e+000
2.193241147239968e-005	7.792966e-007	5.007174e+000	0.000000e+000
2.217448004173492e-005	5.300301e-007	5.007547e+000	0.000000e+000
2.234181442512723e-005	3.453578e-007	5.007705e+000	0.000000e+000
2.252259406508805e-005	1.361223e-007	5.007782e+000	0.000000e+000
2.268679422091655e-005	-5.150761e-008	5.007764e+000	0.000000e+000
2.295389555988062e-005	-3.463633e-007	5.007549e+000	0.000000e+000
2.338524048013450e-005	-7.917540e-007	5.006810e+000	0.000000e+000
2.396364284197992e-005	-1.290781e-006	5.005229e+000	0.000000e+000
2.453759960689505e-005	-1.611569e-006	5.003139e+000	0.000000e+000
2.518585069570032e-005	-1.711797e-006	5.000459e+000	0.000000e+000
2.589947406910542e-005	-1.506313e-006	4.997610e+000	0.000000e+000
2.654568425213529e-005	-1.072238e-006	4.995426e+000	0.000000e+000
2.684590259328836e-005	-7.953119e-007	4.994664e+000	0.000000e+000
2.706156809973439e-005	-5.712398e-007	4.994279e+000	0.000000e+000
2.722188817703278e-005	-3.983413e-007	4.994080e+000	0.000000e+000
2.739861069778217e-005	-2.026031e-007	4.993951e+000	0.000000e+000
2.761226804061633e-005	3.887332e-008	4.993907e+000	0.000000e+000
2.783275399784337e-005	2.876076e-007	4.994008e+000	0.000000e+000
2.819031389040406e-005	6.718657e-007	4.994490e+000	0.000000e+000
2.876058254687045e-005	1.190973e-006	4.995907e+000	0.000000e+000
2.962237842860653e-005	1.708662e-006	4.998950e+000	0.000000e+000
3.024195993274023e-005	1.804842e-006	5.001501e+000	0.000000e+000
3.075131216453380e-005	1.670391e-006	5.003597e+000	0.000000e+000
3.123222556511000e-005	1.400816e-006	5.005352e+000	0.000000e+000
3.159873603302661e-005	1.099242e-006	5.006432e+000	0.000000e+000
3.195371511022279e-005	7.513480e-007	5.007205e+000	0.000000e+000
3.218642317323749e-005	5.111073e-007	5.007555e+000	0.000000e+000
3.235664090109900e-005	3.235341e-007	5.007704e+000	0.000000e+000
3.256729728163968e-005	8.074933e-008	5.007773e+000	0.000000e+000
3.275957317100880e-005	-1.373446e-007	5.007720e+000	0.000000e+000
3.307195002183603e-005	-4.764154e-007	5.007382e+000	0.000000e+000
3.357363565678303e-005	-9.727526e-007	5.006359e+000	0.000000e+000
3.413822578319453e-005	-1.412049e-006	5.004638e+000	0.000000e+000
3.472792018964332e-005	-1.672081e-006	5.002363e+000	0.000000e+000
3.539707313751230e-005	-1.684021e-006	4.999584e+000	0.000000e+000
3.613311397506336e-005	-1.379191e-006	4.996746e+000	0.000000e+000
3.664085468471815e-005	-9.904054e-007	4.995152e+000	0.000000e+000
3.691317223078447e-005	-7.269444e-007	4.994526e+000	0.000000e+000
3.711116236839636e-005	-5.216124e-007	4.994204e+000	0.000000e+000
3.726308233605741e-005	-3.578135e-007	4.994036e+000	0.000000e+000
3.745164873931070e-005	-1.463756e-007	4.993919e+000	0.000000e+000
3.763201969811905e-005	5.902401e-008	4.993900e+000	0.000000e+000
3.786487937474205e-005	3.204474e-007	4.994031e+000	0.000000e+000
3.824214103220467e-005	7.204775e-007	4.994584e+000	0.000000e+000
3.884173018005491e-005	1.248074e-006	4.996155e+000	0.000000e+000
3.973839781133110e-005	1.737645e-006	4.999417e+000	0.000000e+000
4.034994614840742e-005	1.787593e-006	5.001953e+000	0.000000e+000
4.084261344964255e-005	1.623475e-006	5.003947e+000	0.000000e+000
4.131697703906705e-005	1.334501e-006	5.005619e+000	0.000000e+000
4.167186414093379e-005	1.029017e-006	5.006610e+000	0.000000e+000
4.201395490689866e-005	6.850320e-007	5.007310e+000	0.000000e+000
4.219633994177629e-005	4.961945e-007	5.007565e+000	0.000000e+000
4.236894640434392e-005	3.075309e-007	5.007703e+000	0.000000e+000
4.260119243598633e-005	4.080482e-008	5.007762e+000	0.000000e+000
4.281473504352151e-005	-2.008852e-007	5.007676e+000	0.000000e+000
4.316120678665720e-005	-5.714200e-007	5.007231e+000	0.000000e+000
4.371481107697829e-005	-1.095675e-006	5.005963e+000	0.000000e+000
4.430606987034801e-005	-1.508491e-006	5.004017e+000	0.000000e+000
4.491724283319791e-005	-1.707308e-006	5.001571e+000	0.000000e+000
4.560395056610630e-005	-1.626959e-006	4.998749e+000	0.000000e+000
4.635961835314872e-005	-1.227471e-006	4.995973e+000	0.000000e+000
4.671945033587479e-005	-9.218236e-007	4.994934e+000	0.000000e+000
4.696952319949599e-005	-6.677590e-007	4.994416e+000	0.000000e+000
4.715300810091009e-005	-4.764261e-007	4.994145e+000	0.000000e+000
4.731514007557082e-005	-3.027656e-007	4.993985e+000	0.000000e+000
4.747521770541373e-005	-1.229784e-007	4.993898e+000	0.000000e+000
4.764078388831426e-005	6.696713e-008	4.993892e+000	0.000000e+000
4.787913004768639e-005	3.347875e-007	4.994038e+000	0.000000e+000
4.826510214864885e-005	7.413219e-007	4.994623e+000	0.000000e+000
4.887753067683814e-005	1.323589e-006	4.996090e+000	0.000000e+000
4.908955949904013e-005	1.480802e-006	4.996773e+000	0.000000e+000
4.919556773395509e-005	1.549890e-006	4.997152e+000	0.000000e+000
4.930157596887005e-005	1.611907e-006	4.997546e+000	0.000000e+000
